
T34E8 000:003 SEGGER J-Link V4.90 Log File (0000ms, 0003ms total)
T34E8 000:003 DLL Compiled: Jul 28 2014 10:35:20 (0000ms, 0003ms total)
T34E8 000:003 Logging started @ 2019-10-16 13:46 (0000ms, 0003ms total)
T34E8 000:003 JLINK_SetWarnOutHandler(...) (0000ms, 0003ms total)
T34E8 000:003 JLINK_OpenEx(...)
Firmware: J-Link V9 compiled Sep  5 2014 18:54:08
Hardware: V9.00  returns O.K. (0303ms, 0306ms total)
T34E8 000:306 JLINK_GetEmuCaps()  returns 0xB9FF7BBF (0000ms, 0306ms total)
T34E8 000:306 JLINK_TIF_GetAvailable(...) (0001ms, 0307ms total)
T34E8 000:307 JLINK_SetErrorOutHandler(...) (0000ms, 0307ms total)
T34E8 000:307 JLINK_ExecCommand("ProjectFile = "E:\05_Git\01_Gitlab\02_Eastsoft\26_cola_os\github\stm32l0_demo\bsp\STM32L0xx\JLinkSettings.ini"", ...)Device "UNSPECIFIED" selected (0 KB flash, 0 KB RAM).  returns 0x00 (0036ms, 0343ms total)
T34E8 000:372 JLINK_ExecCommand("Device = STM32L051C8Tx", ...)Device "UNSPECIFIED" selected (0 KB flash, 0 KB RAM).  returns 0x00 (0038ms, 0381ms total)
T34E8 000:410 JLINK_ExecCommand("DisableConnectionTimeout", ...)  returns 0x01 (0000ms, 0381ms total)
T34E8 000:410 JLINK_GetHardwareVersion()  returns 0x15F90 (0000ms, 0381ms total)
T34E8 000:410 JLINK_GetDLLVersion()  returns 49000 (0000ms, 0381ms total)
T34E8 000:410 JLINK_GetFirmwareString(...) (0000ms, 0381ms total)
T34E8 000:448 JLINK_GetDLLVersion()  returns 49000 (0000ms, 0381ms total)
T34E8 000:448 JLINK_GetCompileDateTime() (0000ms, 0381ms total)
T34E8 000:460 JLINK_GetFirmwareString(...) (0001ms, 0382ms total)
T34E8 000:474 JLINK_GetHardwareVersion()  returns 0x15F90 (0000ms, 0382ms total)
T34E8 000:497 JLINK_TIF_Select(JLINKARM_TIF_SWD)  returns 0x00 (0004ms, 0386ms total)
T34E8 000:501 JLINK_SetSpeed(5000) (0001ms, 0387ms total)
T34E8 000:502 JLINK_GetId() >0x108 TIF>Found SWD-DP with ID 0x0BC11477 >0x0D TIF> >0x21 TIF> >0x0D TIF> >0x28 TIF> >0x0D TIF> >0x28 TIF> >0x0D TIF> >0x21 TIF> >0x0D TIF> >0x28 TIF> >0x0D TIF> >0x21 TIF> >0x0D TIF> >0x21 TIF> >0x0D TIF> >0x21 TIF> >0x0D TIF> >0x28 TIF> >0x0D TIF> >0x28 TIF> >0x0D TIF> >0x28 TIF> >0x0D TIF> >0x21 TIF> >0x0D TIF> >0x21 TIF> >0x0D TIF> >0x21 TIF> >0x0D TIF> >0x28 TIF> >0x0D TIF> >0x28 TIF> >0x0D TIF> >0x21 TIF> >0x0D TIF> >0x28 TIF> >0x0D TIF> >0x28 TIF> >0x0D TIF>
 >0x28 TIF> >0x0D TIF> >0x21 TIF> >0x0D TIF> >0x21 TIF> >0x0D TIF> >0x28 TIF> >0x0D TIF> >0x21 TIF> >0x0D TIF> >0x21 TIF>Found Cortex-M0 r0p1, Little endian. -- CPU_WriteMem(4 bytes @ 0xE0002000) -- CPU_ReadMem(4 bytes @ 0xE000EDF0) -- CPU_ReadMem(4 bytes @ 0xE0002000)FPUnit: 4 code (BP) slots and 0 literal slots -- CPU_ReadMem(4 bytes @ 0xE000EDFC) -- CPU_ReadMem(4 bytes @ 0xE0001000) -- CPU_WriteMem(4 bytes @ 0xE0001000) -- CPU_ReadMem(4 bytes @ 0xE00FF018) >0x0D TIF> >0x21 TIF>  returns 0x0BC11477
 (0131ms, 0518ms total)
T34E8 000:633 JLINK_GetDLLVersion()  returns 49000 (0000ms, 0518ms total)
T34E8 000:633 JLINK_CORE_GetFound()  returns 0x60000FF (0000ms, 0518ms total)
T34E8 000:646 JLINK_GetDebugInfo(0x100) -- Value=0xF0000003  returns 0x00 (0000ms, 0518ms total)
T34E8 000:646 JLINK_GetDebugInfo(0x101)  returns 0xFFFFFFFF (0000ms, 0518ms total)
T34E8 000:646 JLINK_ReadMemEx(0xE0041FF0, 0x0010 Bytes, ..., AccessWidth = 33554436) -- CPU is running -- CPU_ReadMem(16 bytes @ 0xE0041FF0) - Data: 00 00 00 00 00 00 00 00 00 00 00 00 00 00 00 00  returns 0x10 (0001ms, 0519ms total)
T34E8 000:647 JLINK_GetDebugInfo(0x102)  returns 0xFFFFFFFF (0000ms, 0519ms total)
T34E8 000:647 JLINK_GetDebugInfo(0x103)  returns 0xFFFFFFFF (0000ms, 0519ms total)
T34E8 000:647 JLINK_ReadMemEx(0xE0040FF0, 0x0010 Bytes, ..., AccessWidth = 33554436) -- CPU is running -- CPU_ReadMem(16 bytes @ 0xE0040FF0) - Data: 00 00 00 00 00 00 00 00 00 00 00 00 00 00 00 00  returns 0x10 (0001ms, 0520ms total)
T34E8 000:648 JLINK_GetDebugInfo(0x104)  returns 0xFFFFFFFF (0000ms, 0520ms total)
T34E8 000:648 JLINK_GetDebugInfo(0x105)  returns 0xFFFFFFFF (0000ms, 0520ms total)
T34E8 000:648 JLINK_GetDebugInfo(0x106)  returns 0xFFFFFFFF (0000ms, 0520ms total)
T34E8 000:648 JLINK_GetDebugInfo(0x107)  returns 0xFFFFFFFF (0000ms, 0520ms total)
T34E8 000:648 JLINK_GetDebugInfo(0x10C)  returns 0xFFFFFFFF (0000ms, 0520ms total)
T34E8 000:648 JLINK_ReadMemU32(0xE000ED00, 0x0001 Items, ...) -- CPU is running -- CPU_ReadMem(4 bytes @ 0xE000ED00) - Data: 01 C6 0C 41  returns 0x01 (0001ms, 0521ms total)
T34E8 000:649 JLINK_GetDebugInfo(0x10F)  returns 0xFFFFFFFF (0000ms, 0521ms total)
T34E8 000:649 JLINK_SetResetType(JLINKARM_RESET_TYPE_NORMAL)  returns JLINKARM_RESET_TYPE_NORMAL (0000ms, 0521ms total)
T34E8 000:649 JLINK_Reset() -- CPU is running -- CPU_WriteMem(4 bytes @ 0xE000EDF0) -- CPU is running -- CPU_WriteMem(4 bytes @ 0xE000EDFC) >0x35 TIF> -- CPU is running -- CPU_WriteMem(4 bytes @ 0xE000ED0C) -- CPU is running -- CPU_ReadMem(4 bytes @ 0xE000EDF0) -- CPU is running -- CPU_ReadMem(4 bytes @ 0xE000EDF0) -- CPU is running -- CPU_WriteMem(4 bytes @ 0xE000EDF0) -- CPU is running -- CPU_WriteMem(4 bytes @ 0xE000EDFC) -- CPU is running -- CPU_ReadMem(4 bytes @ 0xE000EDF0)
 -- CPU_WriteMem(4 bytes @ 0xE0002000) -- CPU_ReadMem(4 bytes @ 0xE000EDFC) -- CPU_ReadMem(4 bytes @ 0xE0001000) -- CPU_WriteMem(4 bytes @ 0xE0001000) (0024ms, 0545ms total)
T34E8 000:673 JLINK_Halt()  returns 0x00 (0000ms, 0545ms total)
T34E8 000:673 JLINK_ReadMemU32(0xE000EDF0, 0x0001 Items, ...) -- CPU_ReadMem(4 bytes @ 0xE000EDF0) - Data: 03 00 03 01  returns 0x01 (0001ms, 0546ms total)
T34E8 000:674 JLINK_WriteU32(0xE000EDF0, 0xA05F0003) -- CPU_WriteMem(4 bytes @ 0xE000EDF0)  returns 0x00 (0001ms, 0547ms total)
T34E8 000:675 JLINK_WriteU32(0xE000EDFC, 0x01000000) -- CPU_WriteMem(4 bytes @ 0xE000EDFC)  returns 0x00 (0001ms, 0548ms total)
T34E8 000:723 JLINK_GetHWStatus(...)  returns 0x00 (0001ms, 0549ms total)
T34E8 000:759 JLINK_GetNumBPUnits(Type = 0xFFFFFF00)  returns 0x04 (0000ms, 0549ms total)
T34E8 000:759 JLINK_GetNumBPUnits(Type = 0xF0)  returns 0x2000 (0000ms, 0549ms total)
T34E8 000:759 JLINK_GetNumWPUnits()  returns 0x02 (0000ms, 0549ms total)
T34E8 000:799 JLINK_GetSpeed()  returns 0xFA0 (0000ms, 0549ms total)
T34E8 000:822 JLINK_ReadMemU32(0xE000E004, 0x0001 Items, ...) -- CPU_ReadMem(4 bytes @ 0xE000E004) - Data: 00 00 00 00  returns 0x01 (0001ms, 0550ms total)
T34E8 000:823 JLINK_Halt()  returns 0x00 (0000ms, 0550ms total)
T34E8 000:823 JLINK_IsHalted()  returns TRUE (0000ms, 0550ms total)
T34E8 000:831 JLINK_WriteMem(0x20000000, 0x0140 Bytes, ...) - Data: 00 BE 0A E0 0D 78 2D 06 68 40 08 24 40 00 00 D3 ... -- CPU_WriteMem(320 bytes @ 0x20000000)  returns 0x140 (0003ms, 0553ms total)
T34E8 000:834 JLINK_WriteReg(R0, 0x08000000)  returns 0x00 (0000ms, 0553ms total)
T34E8 000:834 JLINK_WriteReg(R1, 0x00B71B00)  returns 0x00 (0000ms, 0553ms total)
T34E8 000:834 JLINK_WriteReg(R2, 0x00000001)  returns 0x00 (0000ms, 0553ms total)
T34E8 000:834 JLINK_WriteReg(R3, 0x00000000)  returns 0x00 (0000ms, 0553ms total)
T34E8 000:834 JLINK_WriteReg(R4, 0x00000000)  returns 0x00 (0000ms, 0553ms total)
T34E8 000:834 JLINK_WriteReg(R5, 0x00000000)  returns 0x00 (0000ms, 0553ms total)
T34E8 000:834 JLINK_WriteReg(R6, 0x00000000)  returns 0x00 (0000ms, 0553ms total)
T34E8 000:834 JLINK_WriteReg(R7, 0x00000000)  returns 0x00 (0000ms, 0553ms total)
T34E8 000:834 JLINK_WriteReg(R8, 0x00000000)  returns 0x00 (0000ms, 0553ms total)
T34E8 000:834 JLINK_WriteReg(R9, 0x2000013C)  returns 0x00 (0000ms, 0553ms total)
T34E8 000:834 JLINK_WriteReg(R10, 0x00000000)  returns 0x00 (0000ms, 0553ms total)
T34E8 000:834 JLINK_WriteReg(R11, 0x00000000)  returns 0x00 (0000ms, 0553ms total)
T34E8 000:834 JLINK_WriteReg(R12, 0x00000000)  returns 0x00 (0000ms, 0553ms total)
T34E8 000:834 JLINK_WriteReg(R13 (SP), 0x20001000)  returns 0x00 (0000ms, 0553ms total)
T34E8 000:834 JLINK_WriteReg(R14, 0x20000001)  returns 0x00 (0000ms, 0553ms total)
T34E8 000:834 JLINK_WriteReg(R15 (PC), 0x20000020)  returns 0x00 (0000ms, 0553ms total)
T34E8 000:834 JLINK_WriteReg(XPSR, 0x01000000)  returns 0x00 (0000ms, 0553ms total)
T34E8 000:834 JLINK_WriteReg(MSP, 0x20001000)  returns 0x00 (0000ms, 0553ms total)
T34E8 000:834 JLINK_WriteReg(PSP, 0x20001000)  returns 0x00 (0000ms, 0553ms total)
T34E8 000:834 JLINK_WriteReg(CFBP, 0x00000000)  returns 0x00 (0000ms, 0553ms total)
T34E8 000:834 JLINK_SetBPEx(Addr = 0x20000000, Type = 0xFFFFFFF2) -- CPU_ReadMem(4 bytes @ 0x20000000) -- CPU_WriteMem(4 bytes @ 0x20000000) -- CPU_ReadMem(4 bytes @ 0x20000000) -- CPU_WriteMem(4 bytes @ 0x20000000) -- CPU_ReadMem(2 bytes @ 0x20000000)  returns 0x00000001 (0005ms, 0558ms total)
T34E8 000:839 JLINK_Go() -- CPU_WriteMem(2 bytes @ 0x20000000) -- CPU_WriteMem(4 bytes @ 0xE0002008) -- CPU_WriteMem(4 bytes @ 0xE000200C) -- CPU_WriteMem(4 bytes @ 0xE0002010) -- CPU_WriteMem(4 bytes @ 0xE0002014) -- CPU_WriteMem(4 bytes @ 0xE0001004) (0009ms, 0567ms total)
T34E8 000:848 JLINK_IsHalted() -- CPU_ReadMem(2 bytes @ 0x20000000)  returns TRUE (0004ms, 0571ms total)
T34E8 000:852 JLINK_ReadReg(R15 (PC))  returns 0x20000000 (0000ms, 0567ms total)
T34E8 000:852 JLINK_ClrBPEx(BPHandle = 0x00000001)  returns 0x00 (0000ms, 0567ms total)
T34E8 000:852 JLINK_ReadReg(R0)  returns 0x00000000 (0000ms, 0567ms total)
T34E8 000:853 JLINK_WriteReg(R0, 0x08000000)  returns 0x00 (0000ms, 0567ms total)
T34E8 000:853 JLINK_WriteReg(R1, 0x00000080)  returns 0x00 (0000ms, 0567ms total)
T34E8 000:853 JLINK_WriteReg(R2, 0x00000000)  returns 0x00 (0000ms, 0567ms total)
T34E8 000:853 JLINK_WriteReg(R3, 0x00000000)  returns 0x00 (0000ms, 0567ms total)
T34E8 000:853 JLINK_WriteReg(R4, 0x00000000)  returns 0x00 (0000ms, 0567ms total)
T34E8 000:853 JLINK_WriteReg(R5, 0x00000000)  returns 0x00 (0000ms, 0567ms total)
T34E8 000:853 JLINK_WriteReg(R6, 0x00000000)  returns 0x00 (0000ms, 0567ms total)
T34E8 000:853 JLINK_WriteReg(R7, 0x00000000)  returns 0x00 (0000ms, 0567ms total)
T34E8 000:853 JLINK_WriteReg(R8, 0x00000000)  returns 0x00 (0000ms, 0567ms total)
T34E8 000:853 JLINK_WriteReg(R9, 0x2000013C)  returns 0x00 (0000ms, 0567ms total)
T34E8 000:853 JLINK_WriteReg(R10, 0x00000000)  returns 0x00 (0000ms, 0567ms total)
T34E8 000:853 JLINK_WriteReg(R11, 0x00000000)  returns 0x00 (0000ms, 0567ms total)
T34E8 000:853 JLINK_WriteReg(R12, 0x00000000)  returns 0x00 (0000ms, 0567ms total)
T34E8 000:853 JLINK_WriteReg(R13 (SP), 0x20001000)  returns 0x00 (0000ms, 0567ms total)
T34E8 000:853 JLINK_WriteReg(R14, 0x20000001)  returns 0x00 (0000ms, 0567ms total)
T34E8 000:853 JLINK_WriteReg(R15 (PC), 0x200000B0)  returns 0x00 (0000ms, 0567ms total)
T34E8 000:853 JLINK_WriteReg(XPSR, 0x01000000)  returns 0x00 (0000ms, 0567ms total)
T34E8 000:853 JLINK_WriteReg(MSP, 0x20001000)  returns 0x00 (0000ms, 0567ms total)
T34E8 000:853 JLINK_WriteReg(PSP, 0x20001000)  returns 0x00 (0000ms, 0567ms total)
T34E8 000:853 JLINK_WriteReg(CFBP, 0x00000000)  returns 0x00 (0000ms, 0567ms total)
T34E8 000:853 JLINK_SetBPEx(Addr = 0x20000000, Type = 0xFFFFFFF2)  returns 0x00000002 (0000ms, 0567ms total)
T34E8 000:853 JLINK_Go() (0002ms, 0569ms total)
T34E8 000:855 JLINK_IsHalted() -- CPU_ReadMem(2 bytes @ 0x20000000)  returns TRUE (0004ms, 0573ms total)
T34E8 000:859 JLINK_ReadReg(R15 (PC))  returns 0x20000000 (0000ms, 0569ms total)
T34E8 000:859 JLINK_ClrBPEx(BPHandle = 0x00000002)  returns 0x00 (0000ms, 0569ms total)
T34E8 000:859 JLINK_ReadReg(R0)  returns 0x00000001 (0000ms, 0569ms total)
T34E8 000:859 JLINK_WriteReg(R0, 0x08000000)  returns 0x00 (0000ms, 0569ms total)
T34E8 000:859 JLINK_WriteReg(R1, 0x00000080)  returns 0x00 (0000ms, 0569ms total)
T34E8 000:859 JLINK_WriteReg(R2, 0x00000000)  returns 0x00 (0000ms, 0569ms total)
T34E8 000:859 JLINK_WriteReg(R3, 0x00000000)  returns 0x00 (0000ms, 0569ms total)
T34E8 000:859 JLINK_WriteReg(R4, 0x00000000)  returns 0x00 (0000ms, 0569ms total)
T34E8 000:859 JLINK_WriteReg(R5, 0x00000000)  returns 0x00 (0000ms, 0569ms total)
T34E8 000:859 JLINK_WriteReg(R6, 0x00000000)  returns 0x00 (0000ms, 0569ms total)
T34E8 000:859 JLINK_WriteReg(R7, 0x00000000)  returns 0x00 (0000ms, 0569ms total)
T34E8 000:859 JLINK_WriteReg(R8, 0x00000000)  returns 0x00 (0000ms, 0569ms total)
T34E8 000:859 JLINK_WriteReg(R9, 0x2000013C)  returns 0x00 (0000ms, 0569ms total)
T34E8 000:859 JLINK_WriteReg(R10, 0x00000000)  returns 0x00 (0000ms, 0569ms total)
T34E8 000:859 JLINK_WriteReg(R11, 0x00000000)  returns 0x00 (0000ms, 0569ms total)
T34E8 000:859 JLINK_WriteReg(R12, 0x00000000)  returns 0x00 (0000ms, 0569ms total)
T34E8 000:859 JLINK_WriteReg(R13 (SP), 0x20001000)  returns 0x00 (0000ms, 0569ms total)
T34E8 000:859 JLINK_WriteReg(R14, 0x20000001)  returns 0x00 (0000ms, 0569ms total)
T34E8 000:859 JLINK_WriteReg(R15 (PC), 0x2000007A)  returns 0x00 (0000ms, 0569ms total)
T34E8 000:859 JLINK_WriteReg(XPSR, 0x01000000)  returns 0x00 (0000ms, 0569ms total)
T34E8 000:860 JLINK_WriteReg(MSP, 0x20001000)  returns 0x00 (0000ms, 0569ms total)
T34E8 000:860 JLINK_WriteReg(PSP, 0x20001000)  returns 0x00 (0000ms, 0569ms total)
T34E8 000:860 JLINK_WriteReg(CFBP, 0x00000000)  returns 0x00 (0000ms, 0569ms total)
T34E8 000:860 JLINK_SetBPEx(Addr = 0x20000000, Type = 0xFFFFFFF2)  returns 0x00000003 (0000ms, 0569ms total)
T34E8 000:860 JLINK_Go() (0001ms, 0570ms total)
T34E8 000:861 JLINK_IsHalted()  returns FALSE (0001ms, 0571ms total)
T34E8 000:917 JLINK_IsHalted() -- CPU_ReadMem(2 bytes @ 0x20000000)  returns TRUE (0004ms, 0574ms total)
T34E8 000:921 JLINK_ReadReg(R15 (PC))  returns 0x20000000 (0000ms, 0570ms total)
T34E8 000:921 JLINK_ClrBPEx(BPHandle = 0x00000003)  returns 0x00 (0000ms, 0570ms total)
T34E8 000:921 JLINK_ReadReg(R0)  returns 0x00000000 (0000ms, 0570ms total)
T34E8 000:922 JLINK_WriteReg(R0, 0x08000080)  returns 0x00 (0000ms, 0570ms total)
T34E8 000:922 JLINK_WriteReg(R1, 0x00000080)  returns 0x00 (0000ms, 0570ms total)
T34E8 000:922 JLINK_WriteReg(R2, 0x00000000)  returns 0x00 (0000ms, 0570ms total)
T34E8 000:922 JLINK_WriteReg(R3, 0x00000000)  returns 0x00 (0000ms, 0570ms total)
T34E8 000:922 JLINK_WriteReg(R4, 0x00000000)  returns 0x00 (0000ms, 0570ms total)
T34E8 000:922 JLINK_WriteReg(R5, 0x00000000)  returns 0x00 (0000ms, 0570ms total)
T34E8 000:922 JLINK_WriteReg(R6, 0x00000000)  returns 0x00 (0000ms, 0570ms total)
T34E8 000:922 JLINK_WriteReg(R7, 0x00000000)  returns 0x00 (0000ms, 0570ms total)
T34E8 000:922 JLINK_WriteReg(R8, 0x00000000)  returns 0x00 (0000ms, 0570ms total)
T34E8 000:922 JLINK_WriteReg(R9, 0x2000013C)  returns 0x00 (0000ms, 0570ms total)
T34E8 000:922 JLINK_WriteReg(R10, 0x00000000)  returns 0x00 (0000ms, 0570ms total)
T34E8 000:922 JLINK_WriteReg(R11, 0x00000000)  returns 0x00 (0000ms, 0570ms total)
T34E8 000:922 JLINK_WriteReg(R12, 0x00000000)  returns 0x00 (0000ms, 0570ms total)
T34E8 000:922 JLINK_WriteReg(R13 (SP), 0x20001000)  returns 0x00 (0000ms, 0570ms total)
T34E8 000:922 JLINK_WriteReg(R14, 0x20000001)  returns 0x00 (0000ms, 0570ms total)
T34E8 000:922 JLINK_WriteReg(R15 (PC), 0x200000B0)  returns 0x00 (0000ms, 0570ms total)
T34E8 000:922 JLINK_WriteReg(XPSR, 0x01000000)  returns 0x00 (0000ms, 0570ms total)
T34E8 000:922 JLINK_WriteReg(MSP, 0x20001000)  returns 0x00 (0000ms, 0570ms total)
T34E8 000:922 JLINK_WriteReg(PSP, 0x20001000)  returns 0x00 (0000ms, 0570ms total)
T34E8 000:922 JLINK_WriteReg(CFBP, 0x00000000)  returns 0x00 (0000ms, 0570ms total)
T34E8 000:922 JLINK_SetBPEx(Addr = 0x20000000, Type = 0xFFFFFFF2)  returns 0x00000004 (0000ms, 0570ms total)
T34E8 000:922 JLINK_Go() (0003ms, 0573ms total)
T34E8 000:925 JLINK_IsHalted() -- CPU_ReadMem(2 bytes @ 0x20000000)  returns TRUE (0004ms, 0577ms total)
T34E8 000:929 JLINK_ReadReg(R15 (PC))  returns 0x20000000 (0000ms, 0573ms total)
T34E8 000:929 JLINK_ClrBPEx(BPHandle = 0x00000004)  returns 0x00 (0000ms, 0573ms total)
T34E8 000:929 JLINK_ReadReg(R0)  returns 0x00000001 (0000ms, 0573ms total)
T34E8 000:929 JLINK_WriteReg(R0, 0x08000080)  returns 0x00 (0000ms, 0573ms total)
T34E8 000:929 JLINK_WriteReg(R1, 0x00000080)  returns 0x00 (0000ms, 0573ms total)
T34E8 000:929 JLINK_WriteReg(R2, 0x00000000)  returns 0x00 (0000ms, 0573ms total)
T34E8 000:929 JLINK_WriteReg(R3, 0x00000000)  returns 0x00 (0000ms, 0573ms total)
T34E8 000:929 JLINK_WriteReg(R4, 0x00000000)  returns 0x00 (0000ms, 0573ms total)
T34E8 000:929 JLINK_WriteReg(R5, 0x00000000)  returns 0x00 (0000ms, 0573ms total)
T34E8 000:929 JLINK_WriteReg(R6, 0x00000000)  returns 0x00 (0000ms, 0573ms total)
T34E8 000:929 JLINK_WriteReg(R7, 0x00000000)  returns 0x00 (0000ms, 0573ms total)
T34E8 000:929 JLINK_WriteReg(R8, 0x00000000)  returns 0x00 (0000ms, 0573ms total)
T34E8 000:929 JLINK_WriteReg(R9, 0x2000013C)  returns 0x00 (0000ms, 0573ms total)
T34E8 000:929 JLINK_WriteReg(R10, 0x00000000)  returns 0x00 (0000ms, 0573ms total)
T34E8 000:929 JLINK_WriteReg(R11, 0x00000000)  returns 0x00 (0000ms, 0573ms total)
T34E8 000:929 JLINK_WriteReg(R12, 0x00000000)  returns 0x00 (0000ms, 0573ms total)
T34E8 000:929 JLINK_WriteReg(R13 (SP), 0x20001000)  returns 0x00 (0000ms, 0573ms total)
T34E8 000:929 JLINK_WriteReg(R14, 0x20000001)  returns 0x00 (0000ms, 0573ms total)
T34E8 000:929 JLINK_WriteReg(R15 (PC), 0x2000007A)  returns 0x00 (0000ms, 0573ms total)
T34E8 000:929 JLINK_WriteReg(XPSR, 0x01000000)  returns 0x00 (0000ms, 0573ms total)
T34E8 000:929 JLINK_WriteReg(MSP, 0x20001000)  returns 0x00 (0000ms, 0573ms total)
T34E8 000:929 JLINK_WriteReg(PSP, 0x20001000)  returns 0x00 (0000ms, 0573ms total)
T34E8 000:929 JLINK_WriteReg(CFBP, 0x00000000)  returns 0x00 (0000ms, 0573ms total)
T34E8 000:929 JLINK_SetBPEx(Addr = 0x20000000, Type = 0xFFFFFFF2)  returns 0x00000005 (0000ms, 0573ms total)
T34E8 000:929 JLINK_Go() (0002ms, 0575ms total)
T34E8 000:931 JLINK_IsHalted()  returns FALSE (0001ms, 0576ms total)
T34E8 000:944 JLINK_IsHalted() -- CPU_ReadMem(2 bytes @ 0x20000000)  returns TRUE (0004ms, 0579ms total)
T34E8 000:948 JLINK_ReadReg(R15 (PC))  returns 0x20000000 (0000ms, 0575ms total)
T34E8 000:948 JLINK_ClrBPEx(BPHandle = 0x00000005)  returns 0x00 (0000ms, 0575ms total)
T34E8 000:948 JLINK_ReadReg(R0)  returns 0x00000000 (0000ms, 0575ms total)
T34E8 000:949 JLINK_WriteReg(R0, 0x08000100)  returns 0x00 (0000ms, 0575ms total)
T34E8 000:949 JLINK_WriteReg(R1, 0x00000080)  returns 0x00 (0000ms, 0575ms total)
T34E8 000:949 JLINK_WriteReg(R2, 0x00000000)  returns 0x00 (0000ms, 0575ms total)
T34E8 000:949 JLINK_WriteReg(R3, 0x00000000)  returns 0x00 (0000ms, 0575ms total)
T34E8 000:949 JLINK_WriteReg(R4, 0x00000000)  returns 0x00 (0000ms, 0575ms total)
T34E8 000:949 JLINK_WriteReg(R5, 0x00000000)  returns 0x00 (0000ms, 0575ms total)
T34E8 000:949 JLINK_WriteReg(R6, 0x00000000)  returns 0x00 (0000ms, 0575ms total)
T34E8 000:949 JLINK_WriteReg(R7, 0x00000000)  returns 0x00 (0000ms, 0575ms total)
T34E8 000:949 JLINK_WriteReg(R8, 0x00000000)  returns 0x00 (0000ms, 0575ms total)
T34E8 000:949 JLINK_WriteReg(R9, 0x2000013C)  returns 0x00 (0000ms, 0575ms total)
T34E8 000:949 JLINK_WriteReg(R10, 0x00000000)  returns 0x00 (0000ms, 0575ms total)
T34E8 000:949 JLINK_WriteReg(R11, 0x00000000)  returns 0x00 (0000ms, 0575ms total)
T34E8 000:949 JLINK_WriteReg(R12, 0x00000000)  returns 0x00 (0000ms, 0575ms total)
T34E8 000:949 JLINK_WriteReg(R13 (SP), 0x20001000)  returns 0x00 (0000ms, 0575ms total)
T34E8 000:949 JLINK_WriteReg(R14, 0x20000001)  returns 0x00 (0000ms, 0575ms total)
T34E8 000:949 JLINK_WriteReg(R15 (PC), 0x200000B0)  returns 0x00 (0000ms, 0575ms total)
T34E8 000:949 JLINK_WriteReg(XPSR, 0x01000000)  returns 0x00 (0000ms, 0575ms total)
T34E8 000:949 JLINK_WriteReg(MSP, 0x20001000)  returns 0x00 (0000ms, 0575ms total)
T34E8 000:949 JLINK_WriteReg(PSP, 0x20001000)  returns 0x00 (0000ms, 0575ms total)
T34E8 000:949 JLINK_WriteReg(CFBP, 0x00000000)  returns 0x00 (0000ms, 0575ms total)
T34E8 000:949 JLINK_SetBPEx(Addr = 0x20000000, Type = 0xFFFFFFF2)  returns 0x00000006 (0000ms, 0575ms total)
T34E8 000:949 JLINK_Go() (0002ms, 0577ms total)
T34E8 000:951 JLINK_IsHalted() -- CPU_ReadMem(2 bytes @ 0x20000000)  returns TRUE (0004ms, 0581ms total)
T34E8 000:955 JLINK_ReadReg(R15 (PC))  returns 0x20000000 (0000ms, 0577ms total)
T34E8 000:955 JLINK_ClrBPEx(BPHandle = 0x00000006)  returns 0x00 (0000ms, 0577ms total)
T34E8 000:955 JLINK_ReadReg(R0)  returns 0x00000001 (0000ms, 0577ms total)
T34E8 000:955 JLINK_WriteReg(R0, 0x08000100)  returns 0x00 (0000ms, 0577ms total)
T34E8 000:955 JLINK_WriteReg(R1, 0x00000080)  returns 0x00 (0000ms, 0577ms total)
T34E8 000:955 JLINK_WriteReg(R2, 0x00000000)  returns 0x00 (0000ms, 0577ms total)
T34E8 000:955 JLINK_WriteReg(R3, 0x00000000)  returns 0x00 (0000ms, 0577ms total)
T34E8 000:955 JLINK_WriteReg(R4, 0x00000000)  returns 0x00 (0000ms, 0577ms total)
T34E8 000:955 JLINK_WriteReg(R5, 0x00000000)  returns 0x00 (0000ms, 0577ms total)
T34E8 000:955 JLINK_WriteReg(R6, 0x00000000)  returns 0x00 (0000ms, 0577ms total)
T34E8 000:955 JLINK_WriteReg(R7, 0x00000000)  returns 0x00 (0000ms, 0577ms total)
T34E8 000:955 JLINK_WriteReg(R8, 0x00000000)  returns 0x00 (0000ms, 0577ms total)
T34E8 000:955 JLINK_WriteReg(R9, 0x2000013C)  returns 0x00 (0000ms, 0577ms total)
T34E8 000:955 JLINK_WriteReg(R10, 0x00000000)  returns 0x00 (0000ms, 0577ms total)
T34E8 000:955 JLINK_WriteReg(R11, 0x00000000)  returns 0x00 (0000ms, 0577ms total)
T34E8 000:955 JLINK_WriteReg(R12, 0x00000000)  returns 0x00 (0000ms, 0577ms total)
T34E8 000:955 JLINK_WriteReg(R13 (SP), 0x20001000)  returns 0x00 (0000ms, 0577ms total)
T34E8 000:955 JLINK_WriteReg(R14, 0x20000001)  returns 0x00 (0000ms, 0577ms total)
T34E8 000:955 JLINK_WriteReg(R15 (PC), 0x2000007A)  returns 0x00 (0000ms, 0577ms total)
T34E8 000:955 JLINK_WriteReg(XPSR, 0x01000000)  returns 0x00 (0000ms, 0577ms total)
T34E8 000:955 JLINK_WriteReg(MSP, 0x20001000)  returns 0x00 (0000ms, 0577ms total)
T34E8 000:955 JLINK_WriteReg(PSP, 0x20001000)  returns 0x00 (0000ms, 0577ms total)
T34E8 000:955 JLINK_WriteReg(CFBP, 0x00000000)  returns 0x00 (0000ms, 0577ms total)
T34E8 000:955 JLINK_SetBPEx(Addr = 0x20000000, Type = 0xFFFFFFF2)  returns 0x00000007 (0000ms, 0577ms total)
T34E8 000:955 JLINK_Go() (0002ms, 0579ms total)
T34E8 000:957 JLINK_IsHalted()  returns FALSE (0001ms, 0580ms total)
T34E8 000:962 JLINK_IsHalted() -- CPU_ReadMem(2 bytes @ 0x20000000)  returns TRUE (0004ms, 0583ms total)
T34E8 000:966 JLINK_ReadReg(R15 (PC))  returns 0x20000000 (0000ms, 0579ms total)
T34E8 000:966 JLINK_ClrBPEx(BPHandle = 0x00000007)  returns 0x00 (0000ms, 0579ms total)
T34E8 000:966 JLINK_ReadReg(R0)  returns 0x00000000 (0000ms, 0579ms total)
T34E8 000:967 JLINK_WriteReg(R0, 0x08000180)  returns 0x00 (0000ms, 0579ms total)
T34E8 000:967 JLINK_WriteReg(R1, 0x00000080)  returns 0x00 (0000ms, 0579ms total)
T34E8 000:967 JLINK_WriteReg(R2, 0x00000000)  returns 0x00 (0000ms, 0579ms total)
T34E8 000:967 JLINK_WriteReg(R3, 0x00000000)  returns 0x00 (0000ms, 0579ms total)
T34E8 000:967 JLINK_WriteReg(R4, 0x00000000)  returns 0x00 (0000ms, 0579ms total)
T34E8 000:967 JLINK_WriteReg(R5, 0x00000000)  returns 0x00 (0000ms, 0579ms total)
T34E8 000:967 JLINK_WriteReg(R6, 0x00000000)  returns 0x00 (0000ms, 0579ms total)
T34E8 000:967 JLINK_WriteReg(R7, 0x00000000)  returns 0x00 (0000ms, 0579ms total)
T34E8 000:967 JLINK_WriteReg(R8, 0x00000000)  returns 0x00 (0000ms, 0579ms total)
T34E8 000:967 JLINK_WriteReg(R9, 0x2000013C)  returns 0x00 (0000ms, 0579ms total)
T34E8 000:967 JLINK_WriteReg(R10, 0x00000000)  returns 0x00 (0000ms, 0579ms total)
T34E8 000:967 JLINK_WriteReg(R11, 0x00000000)  returns 0x00 (0000ms, 0579ms total)
T34E8 000:967 JLINK_WriteReg(R12, 0x00000000)  returns 0x00 (0000ms, 0579ms total)
T34E8 000:967 JLINK_WriteReg(R13 (SP), 0x20001000)  returns 0x00 (0000ms, 0579ms total)
T34E8 000:967 JLINK_WriteReg(R14, 0x20000001)  returns 0x00 (0000ms, 0579ms total)
T34E8 000:967 JLINK_WriteReg(R15 (PC), 0x200000B0)  returns 0x00 (0000ms, 0579ms total)
T34E8 000:967 JLINK_WriteReg(XPSR, 0x01000000)  returns 0x00 (0000ms, 0579ms total)
T34E8 000:967 JLINK_WriteReg(MSP, 0x20001000)  returns 0x00 (0000ms, 0579ms total)
T34E8 000:967 JLINK_WriteReg(PSP, 0x20001000)  returns 0x00 (0000ms, 0579ms total)
T34E8 000:967 JLINK_WriteReg(CFBP, 0x00000000)  returns 0x00 (0000ms, 0579ms total)
T34E8 000:967 JLINK_SetBPEx(Addr = 0x20000000, Type = 0xFFFFFFF2)  returns 0x00000008 (0000ms, 0579ms total)
T34E8 000:967 JLINK_Go() (0002ms, 0581ms total)
T34E8 000:969 JLINK_IsHalted() -- CPU_ReadMem(2 bytes @ 0x20000000)  returns TRUE (0004ms, 0585ms total)
T34E8 000:973 JLINK_ReadReg(R15 (PC))  returns 0x20000000 (0000ms, 0581ms total)
T34E8 000:973 JLINK_ClrBPEx(BPHandle = 0x00000008)  returns 0x00 (0000ms, 0581ms total)
T34E8 000:973 JLINK_ReadReg(R0)  returns 0x00000001 (0000ms, 0581ms total)
T34E8 000:973 JLINK_WriteReg(R0, 0x08000180)  returns 0x00 (0000ms, 0581ms total)
T34E8 000:973 JLINK_WriteReg(R1, 0x00000080)  returns 0x00 (0000ms, 0581ms total)
T34E8 000:973 JLINK_WriteReg(R2, 0x00000000)  returns 0x00 (0000ms, 0581ms total)
T34E8 000:973 JLINK_WriteReg(R3, 0x00000000)  returns 0x00 (0000ms, 0581ms total)
T34E8 000:973 JLINK_WriteReg(R4, 0x00000000)  returns 0x00 (0000ms, 0581ms total)
T34E8 000:973 JLINK_WriteReg(R5, 0x00000000)  returns 0x00 (0000ms, 0581ms total)
T34E8 000:973 JLINK_WriteReg(R6, 0x00000000)  returns 0x00 (0000ms, 0581ms total)
T34E8 000:973 JLINK_WriteReg(R7, 0x00000000)  returns 0x00 (0000ms, 0581ms total)
T34E8 000:973 JLINK_WriteReg(R8, 0x00000000)  returns 0x00 (0000ms, 0581ms total)
T34E8 000:973 JLINK_WriteReg(R9, 0x2000013C)  returns 0x00 (0000ms, 0581ms total)
T34E8 000:973 JLINK_WriteReg(R10, 0x00000000)  returns 0x00 (0000ms, 0581ms total)
T34E8 000:973 JLINK_WriteReg(R11, 0x00000000)  returns 0x00 (0000ms, 0581ms total)
T34E8 000:973 JLINK_WriteReg(R12, 0x00000000)  returns 0x00 (0000ms, 0581ms total)
T34E8 000:973 JLINK_WriteReg(R13 (SP), 0x20001000)  returns 0x00 (0000ms, 0581ms total)
T34E8 000:973 JLINK_WriteReg(R14, 0x20000001)  returns 0x00 (0000ms, 0581ms total)
T34E8 000:974 JLINK_WriteReg(R15 (PC), 0x2000007A)  returns 0x00 (0000ms, 0582ms total)
T34E8 000:974 JLINK_WriteReg(XPSR, 0x01000000)  returns 0x00 (0000ms, 0582ms total)
T34E8 000:974 JLINK_WriteReg(MSP, 0x20001000)  returns 0x00 (0000ms, 0582ms total)
T34E8 000:974 JLINK_WriteReg(PSP, 0x20001000)  returns 0x00 (0000ms, 0582ms total)
T34E8 000:974 JLINK_WriteReg(CFBP, 0x00000000)  returns 0x00 (0000ms, 0582ms total)
T34E8 000:974 JLINK_SetBPEx(Addr = 0x20000000, Type = 0xFFFFFFF2)  returns 0x00000009 (0000ms, 0582ms total)
T34E8 000:974 JLINK_Go() (0001ms, 0583ms total)
T34E8 000:975 JLINK_IsHalted()  returns FALSE (0001ms, 0584ms total)
T34E8 000:987 JLINK_IsHalted() -- CPU_ReadMem(2 bytes @ 0x20000000)  returns TRUE (0004ms, 0587ms total)
T34E8 000:991 JLINK_ReadReg(R15 (PC))  returns 0x20000000 (0000ms, 0583ms total)
T34E8 000:991 JLINK_ClrBPEx(BPHandle = 0x00000009)  returns 0x00 (0000ms, 0583ms total)
T34E8 000:991 JLINK_ReadReg(R0)  returns 0x00000000 (0000ms, 0583ms total)
T34E8 000:991 JLINK_WriteReg(R0, 0x08000200)  returns 0x00 (0000ms, 0583ms total)
T34E8 000:991 JLINK_WriteReg(R1, 0x00000080)  returns 0x00 (0000ms, 0583ms total)
T34E8 000:991 JLINK_WriteReg(R2, 0x00000000)  returns 0x00 (0000ms, 0583ms total)
T34E8 000:991 JLINK_WriteReg(R3, 0x00000000)  returns 0x00 (0000ms, 0583ms total)
T34E8 000:991 JLINK_WriteReg(R4, 0x00000000)  returns 0x00 (0000ms, 0583ms total)
T34E8 000:991 JLINK_WriteReg(R5, 0x00000000)  returns 0x00 (0000ms, 0583ms total)
T34E8 000:991 JLINK_WriteReg(R6, 0x00000000)  returns 0x00 (0000ms, 0583ms total)
T34E8 000:991 JLINK_WriteReg(R7, 0x00000000)  returns 0x00 (0000ms, 0583ms total)
T34E8 000:991 JLINK_WriteReg(R8, 0x00000000)  returns 0x00 (0000ms, 0583ms total)
T34E8 000:991 JLINK_WriteReg(R9, 0x2000013C)  returns 0x00 (0000ms, 0583ms total)
T34E8 000:991 JLINK_WriteReg(R10, 0x00000000)  returns 0x00 (0000ms, 0583ms total)
T34E8 000:991 JLINK_WriteReg(R11, 0x00000000)  returns 0x00 (0000ms, 0583ms total)
T34E8 000:991 JLINK_WriteReg(R12, 0x00000000)  returns 0x00 (0000ms, 0583ms total)
T34E8 000:991 JLINK_WriteReg(R13 (SP), 0x20001000)  returns 0x00 (0000ms, 0583ms total)
T34E8 000:991 JLINK_WriteReg(R14, 0x20000001)  returns 0x00 (0000ms, 0583ms total)
T34E8 000:991 JLINK_WriteReg(R15 (PC), 0x200000B0)  returns 0x00 (0001ms, 0584ms total)
T34E8 000:992 JLINK_WriteReg(XPSR, 0x01000000)  returns 0x00 (0000ms, 0584ms total)
T34E8 000:992 JLINK_WriteReg(MSP, 0x20001000)  returns 0x00 (0000ms, 0584ms total)
T34E8 000:992 JLINK_WriteReg(PSP, 0x20001000)  returns 0x00 (0000ms, 0584ms total)
T34E8 000:992 JLINK_WriteReg(CFBP, 0x00000000)  returns 0x00 (0000ms, 0584ms total)
T34E8 000:992 JLINK_SetBPEx(Addr = 0x20000000, Type = 0xFFFFFFF2)  returns 0x0000000A (0000ms, 0584ms total)
T34E8 000:992 JLINK_Go() (0002ms, 0586ms total)
T34E8 000:994 JLINK_IsHalted() -- CPU_ReadMem(2 bytes @ 0x20000000)  returns TRUE (0004ms, 0590ms total)
T34E8 000:998 JLINK_ReadReg(R15 (PC))  returns 0x20000000 (0000ms, 0586ms total)
T34E8 000:998 JLINK_ClrBPEx(BPHandle = 0x0000000A)  returns 0x00 (0000ms, 0586ms total)
T34E8 000:998 JLINK_ReadReg(R0)  returns 0x00000001 (0000ms, 0586ms total)
T34E8 000:998 JLINK_WriteReg(R0, 0x08000200)  returns 0x00 (0000ms, 0586ms total)
T34E8 000:998 JLINK_WriteReg(R1, 0x00000080)  returns 0x00 (0000ms, 0586ms total)
T34E8 000:998 JLINK_WriteReg(R2, 0x00000000)  returns 0x00 (0000ms, 0586ms total)
T34E8 000:998 JLINK_WriteReg(R3, 0x00000000)  returns 0x00 (0000ms, 0586ms total)
T34E8 000:998 JLINK_WriteReg(R4, 0x00000000)  returns 0x00 (0000ms, 0586ms total)
T34E8 000:998 JLINK_WriteReg(R5, 0x00000000)  returns 0x00 (0000ms, 0586ms total)
T34E8 000:998 JLINK_WriteReg(R6, 0x00000000)  returns 0x00 (0000ms, 0586ms total)
T34E8 000:998 JLINK_WriteReg(R7, 0x00000000)  returns 0x00 (0000ms, 0586ms total)
T34E8 000:998 JLINK_WriteReg(R8, 0x00000000)  returns 0x00 (0000ms, 0586ms total)
T34E8 000:998 JLINK_WriteReg(R9, 0x2000013C)  returns 0x00 (0000ms, 0586ms total)
T34E8 000:998 JLINK_WriteReg(R10, 0x00000000)  returns 0x00 (0000ms, 0586ms total)
T34E8 000:998 JLINK_WriteReg(R11, 0x00000000)  returns 0x00 (0000ms, 0586ms total)
T34E8 000:998 JLINK_WriteReg(R12, 0x00000000)  returns 0x00 (0000ms, 0586ms total)
T34E8 000:998 JLINK_WriteReg(R13 (SP), 0x20001000)  returns 0x00 (0000ms, 0586ms total)
T34E8 000:998 JLINK_WriteReg(R14, 0x20000001)  returns 0x00 (0000ms, 0586ms total)
T34E8 000:998 JLINK_WriteReg(R15 (PC), 0x2000007A)  returns 0x00 (0000ms, 0586ms total)
T34E8 000:998 JLINK_WriteReg(XPSR, 0x01000000)  returns 0x00 (0000ms, 0586ms total)
T34E8 000:998 JLINK_WriteReg(MSP, 0x20001000)  returns 0x00 (0000ms, 0586ms total)
T34E8 000:998 JLINK_WriteReg(PSP, 0x20001000)  returns 0x00 (0000ms, 0586ms total)
T34E8 000:998 JLINK_WriteReg(CFBP, 0x00000000)  returns 0x00 (0000ms, 0586ms total)
T34E8 000:998 JLINK_SetBPEx(Addr = 0x20000000, Type = 0xFFFFFFF2)  returns 0x0000000B (0000ms, 0586ms total)
T34E8 000:998 JLINK_Go() (0002ms, 0588ms total)
T34E8 001:000 JLINK_IsHalted()  returns FALSE (0001ms, 0589ms total)
T34E8 001:006 JLINK_IsHalted() -- CPU_ReadMem(2 bytes @ 0x20000000)  returns TRUE (0004ms, 0592ms total)
T34E8 001:010 JLINK_ReadReg(R15 (PC))  returns 0x20000000 (0000ms, 0588ms total)
T34E8 001:010 JLINK_ClrBPEx(BPHandle = 0x0000000B)  returns 0x00 (0000ms, 0588ms total)
T34E8 001:010 JLINK_ReadReg(R0)  returns 0x00000000 (0000ms, 0588ms total)
T34E8 001:010 JLINK_WriteReg(R0, 0x08000280)  returns 0x00 (0000ms, 0588ms total)
T34E8 001:010 JLINK_WriteReg(R1, 0x00000080)  returns 0x00 (0000ms, 0588ms total)
T34E8 001:010 JLINK_WriteReg(R2, 0x00000000)  returns 0x00 (0000ms, 0588ms total)
T34E8 001:011 JLINK_WriteReg(R3, 0x00000000)  returns 0x00 (0000ms, 0588ms total)
T34E8 001:011 JLINK_WriteReg(R4, 0x00000000)  returns 0x00 (0000ms, 0588ms total)
T34E8 001:011 JLINK_WriteReg(R5, 0x00000000)  returns 0x00 (0000ms, 0588ms total)
T34E8 001:011 JLINK_WriteReg(R6, 0x00000000)  returns 0x00 (0000ms, 0588ms total)
T34E8 001:011 JLINK_WriteReg(R7, 0x00000000)  returns 0x00 (0000ms, 0588ms total)
T34E8 001:011 JLINK_WriteReg(R8, 0x00000000)  returns 0x00 (0000ms, 0588ms total)
T34E8 001:011 JLINK_WriteReg(R9, 0x2000013C)  returns 0x00 (0000ms, 0588ms total)
T34E8 001:011 JLINK_WriteReg(R10, 0x00000000)  returns 0x00 (0000ms, 0588ms total)
T34E8 001:011 JLINK_WriteReg(R11, 0x00000000)  returns 0x00 (0000ms, 0588ms total)
T34E8 001:011 JLINK_WriteReg(R12, 0x00000000)  returns 0x00 (0000ms, 0588ms total)
T34E8 001:011 JLINK_WriteReg(R13 (SP), 0x20001000)  returns 0x00 (0000ms, 0588ms total)
T34E8 001:011 JLINK_WriteReg(R14, 0x20000001)  returns 0x00 (0000ms, 0588ms total)
T34E8 001:011 JLINK_WriteReg(R15 (PC), 0x200000B0)  returns 0x00 (0000ms, 0588ms total)
T34E8 001:011 JLINK_WriteReg(XPSR, 0x01000000)  returns 0x00 (0000ms, 0588ms total)
T34E8 001:011 JLINK_WriteReg(MSP, 0x20001000)  returns 0x00 (0000ms, 0588ms total)
T34E8 001:011 JLINK_WriteReg(PSP, 0x20001000)  returns 0x00 (0000ms, 0588ms total)
T34E8 001:011 JLINK_WriteReg(CFBP, 0x00000000)  returns 0x00 (0000ms, 0588ms total)
T34E8 001:011 JLINK_SetBPEx(Addr = 0x20000000, Type = 0xFFFFFFF2)  returns 0x0000000C (0000ms, 0588ms total)
T34E8 001:011 JLINK_Go() (0002ms, 0590ms total)
T34E8 001:013 JLINK_IsHalted() -- CPU_ReadMem(2 bytes @ 0x20000000)  returns TRUE (0004ms, 0594ms total)
T34E8 001:017 JLINK_ReadReg(R15 (PC))  returns 0x20000000 (0000ms, 0590ms total)
T34E8 001:017 JLINK_ClrBPEx(BPHandle = 0x0000000C)  returns 0x00 (0000ms, 0590ms total)
T34E8 001:017 JLINK_ReadReg(R0)  returns 0x00000001 (0000ms, 0590ms total)
T34E8 001:017 JLINK_WriteReg(R0, 0x08000280)  returns 0x00 (0000ms, 0590ms total)
T34E8 001:017 JLINK_WriteReg(R1, 0x00000080)  returns 0x00 (0000ms, 0590ms total)
T34E8 001:017 JLINK_WriteReg(R2, 0x00000000)  returns 0x00 (0000ms, 0590ms total)
T34E8 001:017 JLINK_WriteReg(R3, 0x00000000)  returns 0x00 (0000ms, 0590ms total)
T34E8 001:017 JLINK_WriteReg(R4, 0x00000000)  returns 0x00 (0000ms, 0590ms total)
T34E8 001:017 JLINK_WriteReg(R5, 0x00000000)  returns 0x00 (0000ms, 0590ms total)
T34E8 001:017 JLINK_WriteReg(R6, 0x00000000)  returns 0x00 (0000ms, 0590ms total)
T34E8 001:017 JLINK_WriteReg(R7, 0x00000000)  returns 0x00 (0000ms, 0590ms total)
T34E8 001:017 JLINK_WriteReg(R8, 0x00000000)  returns 0x00 (0000ms, 0590ms total)
T34E8 001:017 JLINK_WriteReg(R9, 0x2000013C)  returns 0x00 (0000ms, 0590ms total)
T34E8 001:017 JLINK_WriteReg(R10, 0x00000000)  returns 0x00 (0000ms, 0590ms total)
T34E8 001:017 JLINK_WriteReg(R11, 0x00000000)  returns 0x00 (0000ms, 0590ms total)
T34E8 001:017 JLINK_WriteReg(R12, 0x00000000)  returns 0x00 (0000ms, 0590ms total)
T34E8 001:017 JLINK_WriteReg(R13 (SP), 0x20001000)  returns 0x00 (0000ms, 0590ms total)
T34E8 001:017 JLINK_WriteReg(R14, 0x20000001)  returns 0x00 (0000ms, 0590ms total)
T34E8 001:017 JLINK_WriteReg(R15 (PC), 0x2000007A)  returns 0x00 (0000ms, 0590ms total)
T34E8 001:017 JLINK_WriteReg(XPSR, 0x01000000)  returns 0x00 (0000ms, 0590ms total)
T34E8 001:017 JLINK_WriteReg(MSP, 0x20001000)  returns 0x00 (0000ms, 0590ms total)
T34E8 001:017 JLINK_WriteReg(PSP, 0x20001000)  returns 0x00 (0000ms, 0590ms total)
T34E8 001:017 JLINK_WriteReg(CFBP, 0x00000000)  returns 0x00 (0000ms, 0590ms total)
T34E8 001:017 JLINK_SetBPEx(Addr = 0x20000000, Type = 0xFFFFFFF2)  returns 0x0000000D (0000ms, 0590ms total)
T34E8 001:017 JLINK_Go() (0002ms, 0592ms total)
T34E8 001:019 JLINK_IsHalted()  returns FALSE (0001ms, 0593ms total)
T34E8 001:024 JLINK_IsHalted() -- CPU_ReadMem(2 bytes @ 0x20000000)  returns TRUE (0004ms, 0596ms total)
T34E8 001:028 JLINK_ReadReg(R15 (PC))  returns 0x20000000 (0000ms, 0592ms total)
T34E8 001:028 JLINK_ClrBPEx(BPHandle = 0x0000000D)  returns 0x00 (0000ms, 0592ms total)
T34E8 001:028 JLINK_ReadReg(R0)  returns 0x00000000 (0000ms, 0592ms total)
T34E8 001:030 JLINK_WriteReg(R0, 0x08000300)  returns 0x00 (0000ms, 0592ms total)
T34E8 001:030 JLINK_WriteReg(R1, 0x00000080)  returns 0x00 (0000ms, 0592ms total)
T34E8 001:030 JLINK_WriteReg(R2, 0x00000000)  returns 0x00 (0000ms, 0592ms total)
T34E8 001:030 JLINK_WriteReg(R3, 0x00000000)  returns 0x00 (0000ms, 0592ms total)
T34E8 001:030 JLINK_WriteReg(R4, 0x00000000)  returns 0x00 (0000ms, 0592ms total)
T34E8 001:030 JLINK_WriteReg(R5, 0x00000000)  returns 0x00 (0000ms, 0592ms total)
T34E8 001:030 JLINK_WriteReg(R6, 0x00000000)  returns 0x00 (0000ms, 0592ms total)
T34E8 001:030 JLINK_WriteReg(R7, 0x00000000)  returns 0x00 (0000ms, 0592ms total)
T34E8 001:030 JLINK_WriteReg(R8, 0x00000000)  returns 0x00 (0000ms, 0592ms total)
T34E8 001:030 JLINK_WriteReg(R9, 0x2000013C)  returns 0x00 (0000ms, 0592ms total)
T34E8 001:030 JLINK_WriteReg(R10, 0x00000000)  returns 0x00 (0000ms, 0592ms total)
T34E8 001:030 JLINK_WriteReg(R11, 0x00000000)  returns 0x00 (0000ms, 0592ms total)
T34E8 001:030 JLINK_WriteReg(R12, 0x00000000)  returns 0x00 (0000ms, 0592ms total)
T34E8 001:030 JLINK_WriteReg(R13 (SP), 0x20001000)  returns 0x00 (0000ms, 0592ms total)
T34E8 001:030 JLINK_WriteReg(R14, 0x20000001)  returns 0x00 (0000ms, 0592ms total)
T34E8 001:030 JLINK_WriteReg(R15 (PC), 0x200000B0)  returns 0x00 (0000ms, 0592ms total)
T34E8 001:030 JLINK_WriteReg(XPSR, 0x01000000)  returns 0x00 (0000ms, 0592ms total)
T34E8 001:030 JLINK_WriteReg(MSP, 0x20001000)  returns 0x00 (0000ms, 0592ms total)
T34E8 001:030 JLINK_WriteReg(PSP, 0x20001000)  returns 0x00 (0000ms, 0592ms total)
T34E8 001:030 JLINK_WriteReg(CFBP, 0x00000000)  returns 0x00 (0000ms, 0592ms total)
T34E8 001:030 JLINK_SetBPEx(Addr = 0x20000000, Type = 0xFFFFFFF2)  returns 0x0000000E (0000ms, 0592ms total)
T34E8 001:030 JLINK_Go() (0003ms, 0595ms total)
T34E8 001:033 JLINK_IsHalted() -- CPU_ReadMem(2 bytes @ 0x20000000)  returns TRUE (0004ms, 0599ms total)
T34E8 001:037 JLINK_ReadReg(R15 (PC))  returns 0x20000000 (0000ms, 0595ms total)
T34E8 001:037 JLINK_ClrBPEx(BPHandle = 0x0000000E)  returns 0x00 (0000ms, 0595ms total)
T34E8 001:037 JLINK_ReadReg(R0)  returns 0x00000001 (0000ms, 0595ms total)
T34E8 001:037 JLINK_WriteReg(R0, 0x08000300)  returns 0x00 (0000ms, 0595ms total)
T34E8 001:037 JLINK_WriteReg(R1, 0x00000080)  returns 0x00 (0000ms, 0595ms total)
T34E8 001:037 JLINK_WriteReg(R2, 0x00000000)  returns 0x00 (0000ms, 0595ms total)
T34E8 001:037 JLINK_WriteReg(R3, 0x00000000)  returns 0x00 (0000ms, 0595ms total)
T34E8 001:037 JLINK_WriteReg(R4, 0x00000000)  returns 0x00 (0000ms, 0595ms total)
T34E8 001:037 JLINK_WriteReg(R5, 0x00000000)  returns 0x00 (0000ms, 0595ms total)
T34E8 001:037 JLINK_WriteReg(R6, 0x00000000)  returns 0x00 (0000ms, 0595ms total)
T34E8 001:037 JLINK_WriteReg(R7, 0x00000000)  returns 0x00 (0000ms, 0595ms total)
T34E8 001:037 JLINK_WriteReg(R8, 0x00000000)  returns 0x00 (0000ms, 0595ms total)
T34E8 001:037 JLINK_WriteReg(R9, 0x2000013C)  returns 0x00 (0000ms, 0595ms total)
T34E8 001:037 JLINK_WriteReg(R10, 0x00000000)  returns 0x00 (0000ms, 0595ms total)
T34E8 001:037 JLINK_WriteReg(R11, 0x00000000)  returns 0x00 (0000ms, 0595ms total)
T34E8 001:037 JLINK_WriteReg(R12, 0x00000000)  returns 0x00 (0000ms, 0595ms total)
T34E8 001:037 JLINK_WriteReg(R13 (SP), 0x20001000)  returns 0x00 (0000ms, 0595ms total)
T34E8 001:037 JLINK_WriteReg(R14, 0x20000001)  returns 0x00 (0000ms, 0595ms total)
T34E8 001:037 JLINK_WriteReg(R15 (PC), 0x2000007A)  returns 0x00 (0000ms, 0595ms total)
T34E8 001:037 JLINK_WriteReg(XPSR, 0x01000000)  returns 0x00 (0000ms, 0595ms total)
T34E8 001:037 JLINK_WriteReg(MSP, 0x20001000)  returns 0x00 (0000ms, 0595ms total)
T34E8 001:037 JLINK_WriteReg(PSP, 0x20001000)  returns 0x00 (0000ms, 0595ms total)
T34E8 001:037 JLINK_WriteReg(CFBP, 0x00000000)  returns 0x00 (0000ms, 0595ms total)
T34E8 001:037 JLINK_SetBPEx(Addr = 0x20000000, Type = 0xFFFFFFF2)  returns 0x0000000F (0000ms, 0595ms total)
T34E8 001:037 JLINK_Go() (0002ms, 0597ms total)
T34E8 001:039 JLINK_IsHalted()  returns FALSE (0001ms, 0598ms total)
T34E8 001:050 JLINK_IsHalted() -- CPU_ReadMem(2 bytes @ 0x20000000)  returns TRUE (0004ms, 0601ms total)
T34E8 001:054 JLINK_ReadReg(R15 (PC))  returns 0x20000000 (0000ms, 0597ms total)
T34E8 001:054 JLINK_ClrBPEx(BPHandle = 0x0000000F)  returns 0x00 (0000ms, 0597ms total)
T34E8 001:054 JLINK_ReadReg(R0)  returns 0x00000000 (0000ms, 0597ms total)
T34E8 001:055 JLINK_WriteReg(R0, 0x08000380)  returns 0x00 (0000ms, 0597ms total)
T34E8 001:055 JLINK_WriteReg(R1, 0x00000080)  returns 0x00 (0000ms, 0597ms total)
T34E8 001:055 JLINK_WriteReg(R2, 0x00000000)  returns 0x00 (0000ms, 0597ms total)
T34E8 001:055 JLINK_WriteReg(R3, 0x00000000)  returns 0x00 (0000ms, 0597ms total)
T34E8 001:055 JLINK_WriteReg(R4, 0x00000000)  returns 0x00 (0000ms, 0597ms total)
T34E8 001:055 JLINK_WriteReg(R5, 0x00000000)  returns 0x00 (0000ms, 0597ms total)
T34E8 001:055 JLINK_WriteReg(R6, 0x00000000)  returns 0x00 (0000ms, 0597ms total)
T34E8 001:055 JLINK_WriteReg(R7, 0x00000000)  returns 0x00 (0000ms, 0597ms total)
T34E8 001:055 JLINK_WriteReg(R8, 0x00000000)  returns 0x00 (0000ms, 0597ms total)
T34E8 001:055 JLINK_WriteReg(R9, 0x2000013C)  returns 0x00 (0000ms, 0597ms total)
T34E8 001:055 JLINK_WriteReg(R10, 0x00000000)  returns 0x00 (0000ms, 0597ms total)
T34E8 001:055 JLINK_WriteReg(R11, 0x00000000)  returns 0x00 (0000ms, 0597ms total)
T34E8 001:055 JLINK_WriteReg(R12, 0x00000000)  returns 0x00 (0000ms, 0597ms total)
T34E8 001:055 JLINK_WriteReg(R13 (SP), 0x20001000)  returns 0x00 (0000ms, 0597ms total)
T34E8 001:055 JLINK_WriteReg(R14, 0x20000001)  returns 0x00 (0000ms, 0597ms total)
T34E8 001:055 JLINK_WriteReg(R15 (PC), 0x200000B0)  returns 0x00 (0000ms, 0597ms total)
T34E8 001:055 JLINK_WriteReg(XPSR, 0x01000000)  returns 0x00 (0000ms, 0597ms total)
T34E8 001:055 JLINK_WriteReg(MSP, 0x20001000)  returns 0x00 (0000ms, 0597ms total)
T34E8 001:055 JLINK_WriteReg(PSP, 0x20001000)  returns 0x00 (0000ms, 0597ms total)
T34E8 001:055 JLINK_WriteReg(CFBP, 0x00000000)  returns 0x00 (0000ms, 0597ms total)
T34E8 001:055 JLINK_SetBPEx(Addr = 0x20000000, Type = 0xFFFFFFF2)  returns 0x00000010 (0000ms, 0597ms total)
T34E8 001:055 JLINK_Go() (0002ms, 0599ms total)
T34E8 001:057 JLINK_IsHalted() -- CPU_ReadMem(2 bytes @ 0x20000000)  returns TRUE (0004ms, 0603ms total)
T34E8 001:061 JLINK_ReadReg(R15 (PC))  returns 0x20000000 (0000ms, 0599ms total)
T34E8 001:061 JLINK_ClrBPEx(BPHandle = 0x00000010)  returns 0x00 (0000ms, 0599ms total)
T34E8 001:061 JLINK_ReadReg(R0)  returns 0x00000001 (0000ms, 0599ms total)
T34E8 001:061 JLINK_WriteReg(R0, 0x08000380)  returns 0x00 (0000ms, 0599ms total)
T34E8 001:061 JLINK_WriteReg(R1, 0x00000080)  returns 0x00 (0000ms, 0599ms total)
T34E8 001:061 JLINK_WriteReg(R2, 0x00000000)  returns 0x00 (0000ms, 0599ms total)
T34E8 001:061 JLINK_WriteReg(R3, 0x00000000)  returns 0x00 (0000ms, 0599ms total)
T34E8 001:061 JLINK_WriteReg(R4, 0x00000000)  returns 0x00 (0000ms, 0599ms total)
T34E8 001:061 JLINK_WriteReg(R5, 0x00000000)  returns 0x00 (0000ms, 0599ms total)
T34E8 001:061 JLINK_WriteReg(R6, 0x00000000)  returns 0x00 (0000ms, 0599ms total)
T34E8 001:061 JLINK_WriteReg(R7, 0x00000000)  returns 0x00 (0000ms, 0599ms total)
T34E8 001:061 JLINK_WriteReg(R8, 0x00000000)  returns 0x00 (0000ms, 0599ms total)
T34E8 001:061 JLINK_WriteReg(R9, 0x2000013C)  returns 0x00 (0000ms, 0599ms total)
T34E8 001:061 JLINK_WriteReg(R10, 0x00000000)  returns 0x00 (0000ms, 0599ms total)
T34E8 001:061 JLINK_WriteReg(R11, 0x00000000)  returns 0x00 (0000ms, 0599ms total)
T34E8 001:061 JLINK_WriteReg(R12, 0x00000000)  returns 0x00 (0000ms, 0599ms total)
T34E8 001:061 JLINK_WriteReg(R13 (SP), 0x20001000)  returns 0x00 (0000ms, 0599ms total)
T34E8 001:061 JLINK_WriteReg(R14, 0x20000001)  returns 0x00 (0000ms, 0599ms total)
T34E8 001:061 JLINK_WriteReg(R15 (PC), 0x2000007A)  returns 0x00 (0000ms, 0599ms total)
T34E8 001:061 JLINK_WriteReg(XPSR, 0x01000000)  returns 0x00 (0000ms, 0599ms total)
T34E8 001:061 JLINK_WriteReg(MSP, 0x20001000)  returns 0x00 (0000ms, 0599ms total)
T34E8 001:061 JLINK_WriteReg(PSP, 0x20001000)  returns 0x00 (0000ms, 0599ms total)
T34E8 001:061 JLINK_WriteReg(CFBP, 0x00000000)  returns 0x00 (0000ms, 0599ms total)
T34E8 001:061 JLINK_SetBPEx(Addr = 0x20000000, Type = 0xFFFFFFF2)  returns 0x00000011 (0000ms, 0599ms total)
T34E8 001:061 JLINK_Go() (0002ms, 0601ms total)
T34E8 001:063 JLINK_IsHalted()  returns FALSE (0001ms, 0602ms total)
T34E8 001:067 JLINK_IsHalted() -- CPU_ReadMem(2 bytes @ 0x20000000)  returns TRUE (0004ms, 0605ms total)
T34E8 001:071 JLINK_ReadReg(R15 (PC))  returns 0x20000000 (0000ms, 0601ms total)
T34E8 001:071 JLINK_ClrBPEx(BPHandle = 0x00000011)  returns 0x00 (0000ms, 0601ms total)
T34E8 001:071 JLINK_ReadReg(R0)  returns 0x00000000 (0000ms, 0601ms total)
T34E8 001:072 JLINK_WriteReg(R0, 0x08000400)  returns 0x00 (0000ms, 0601ms total)
T34E8 001:072 JLINK_WriteReg(R1, 0x00000080)  returns 0x00 (0000ms, 0601ms total)
T34E8 001:072 JLINK_WriteReg(R2, 0x00000000)  returns 0x00 (0000ms, 0601ms total)
T34E8 001:072 JLINK_WriteReg(R3, 0x00000000)  returns 0x00 (0000ms, 0601ms total)
T34E8 001:072 JLINK_WriteReg(R4, 0x00000000)  returns 0x00 (0000ms, 0601ms total)
T34E8 001:072 JLINK_WriteReg(R5, 0x00000000)  returns 0x00 (0000ms, 0601ms total)
T34E8 001:072 JLINK_WriteReg(R6, 0x00000000)  returns 0x00 (0000ms, 0601ms total)
T34E8 001:072 JLINK_WriteReg(R7, 0x00000000)  returns 0x00 (0000ms, 0601ms total)
T34E8 001:072 JLINK_WriteReg(R8, 0x00000000)  returns 0x00 (0000ms, 0601ms total)
T34E8 001:072 JLINK_WriteReg(R9, 0x2000013C)  returns 0x00 (0000ms, 0601ms total)
T34E8 001:072 JLINK_WriteReg(R10, 0x00000000)  returns 0x00 (0000ms, 0601ms total)
T34E8 001:072 JLINK_WriteReg(R11, 0x00000000)  returns 0x00 (0000ms, 0601ms total)
T34E8 001:072 JLINK_WriteReg(R12, 0x00000000)  returns 0x00 (0000ms, 0601ms total)
T34E8 001:072 JLINK_WriteReg(R13 (SP), 0x20001000)  returns 0x00 (0000ms, 0601ms total)
T34E8 001:072 JLINK_WriteReg(R14, 0x20000001)  returns 0x00 (0000ms, 0601ms total)
T34E8 001:072 JLINK_WriteReg(R15 (PC), 0x200000B0)  returns 0x00 (0000ms, 0601ms total)
T34E8 001:072 JLINK_WriteReg(XPSR, 0x01000000)  returns 0x00 (0000ms, 0601ms total)
T34E8 001:072 JLINK_WriteReg(MSP, 0x20001000)  returns 0x00 (0000ms, 0601ms total)
T34E8 001:072 JLINK_WriteReg(PSP, 0x20001000)  returns 0x00 (0000ms, 0601ms total)
T34E8 001:072 JLINK_WriteReg(CFBP, 0x00000000)  returns 0x00 (0000ms, 0601ms total)
T34E8 001:072 JLINK_SetBPEx(Addr = 0x20000000, Type = 0xFFFFFFF2)  returns 0x00000012 (0000ms, 0601ms total)
T34E8 001:072 JLINK_Go() (0002ms, 0603ms total)
T34E8 001:074 JLINK_IsHalted() -- CPU_ReadMem(2 bytes @ 0x20000000)  returns TRUE (0004ms, 0607ms total)
T34E8 001:078 JLINK_ReadReg(R15 (PC))  returns 0x20000000 (0000ms, 0603ms total)
T34E8 001:078 JLINK_ClrBPEx(BPHandle = 0x00000012)  returns 0x00 (0000ms, 0603ms total)
T34E8 001:078 JLINK_ReadReg(R0)  returns 0x00000001 (0000ms, 0603ms total)
T34E8 001:078 JLINK_WriteReg(R0, 0x08000400)  returns 0x00 (0000ms, 0603ms total)
T34E8 001:078 JLINK_WriteReg(R1, 0x00000080)  returns 0x00 (0000ms, 0603ms total)
T34E8 001:078 JLINK_WriteReg(R2, 0x00000000)  returns 0x00 (0000ms, 0603ms total)
T34E8 001:078 JLINK_WriteReg(R3, 0x00000000)  returns 0x00 (0000ms, 0603ms total)
T34E8 001:078 JLINK_WriteReg(R4, 0x00000000)  returns 0x00 (0000ms, 0603ms total)
T34E8 001:078 JLINK_WriteReg(R5, 0x00000000)  returns 0x00 (0000ms, 0603ms total)
T34E8 001:078 JLINK_WriteReg(R6, 0x00000000)  returns 0x00 (0000ms, 0603ms total)
T34E8 001:078 JLINK_WriteReg(R7, 0x00000000)  returns 0x00 (0000ms, 0603ms total)
T34E8 001:078 JLINK_WriteReg(R8, 0x00000000)  returns 0x00 (0000ms, 0603ms total)
T34E8 001:078 JLINK_WriteReg(R9, 0x2000013C)  returns 0x00 (0000ms, 0603ms total)
T34E8 001:078 JLINK_WriteReg(R10, 0x00000000)  returns 0x00 (0000ms, 0603ms total)
T34E8 001:078 JLINK_WriteReg(R11, 0x00000000)  returns 0x00 (0000ms, 0603ms total)
T34E8 001:078 JLINK_WriteReg(R12, 0x00000000)  returns 0x00 (0000ms, 0603ms total)
T34E8 001:078 JLINK_WriteReg(R13 (SP), 0x20001000)  returns 0x00 (0000ms, 0603ms total)
T34E8 001:078 JLINK_WriteReg(R14, 0x20000001)  returns 0x00 (0000ms, 0603ms total)
T34E8 001:078 JLINK_WriteReg(R15 (PC), 0x2000007A)  returns 0x00 (0000ms, 0603ms total)
T34E8 001:078 JLINK_WriteReg(XPSR, 0x01000000)  returns 0x00 (0000ms, 0603ms total)
T34E8 001:078 JLINK_WriteReg(MSP, 0x20001000)  returns 0x00 (0000ms, 0603ms total)
T34E8 001:078 JLINK_WriteReg(PSP, 0x20001000)  returns 0x00 (0000ms, 0603ms total)
T34E8 001:078 JLINK_WriteReg(CFBP, 0x00000000)  returns 0x00 (0000ms, 0603ms total)
T34E8 001:078 JLINK_SetBPEx(Addr = 0x20000000, Type = 0xFFFFFFF2)  returns 0x00000013 (0000ms, 0603ms total)
T34E8 001:078 JLINK_Go() (0002ms, 0605ms total)
T34E8 001:080 JLINK_IsHalted()  returns FALSE (0001ms, 0606ms total)
T34E8 001:084 JLINK_IsHalted() -- CPU_ReadMem(2 bytes @ 0x20000000)  returns TRUE (0004ms, 0609ms total)
T34E8 001:088 JLINK_ReadReg(R15 (PC))  returns 0x20000000 (0000ms, 0605ms total)
T34E8 001:088 JLINK_ClrBPEx(BPHandle = 0x00000013)  returns 0x00 (0000ms, 0605ms total)
T34E8 001:088 JLINK_ReadReg(R0)  returns 0x00000000 (0000ms, 0605ms total)
T34E8 001:088 JLINK_WriteReg(R0, 0x08000480)  returns 0x00 (0000ms, 0605ms total)
T34E8 001:088 JLINK_WriteReg(R1, 0x00000080)  returns 0x00 (0000ms, 0605ms total)
T34E8 001:088 JLINK_WriteReg(R2, 0x00000000)  returns 0x00 (0000ms, 0605ms total)
T34E8 001:088 JLINK_WriteReg(R3, 0x00000000)  returns 0x00 (0000ms, 0605ms total)
T34E8 001:088 JLINK_WriteReg(R4, 0x00000000)  returns 0x00 (0000ms, 0605ms total)
T34E8 001:088 JLINK_WriteReg(R5, 0x00000000)  returns 0x00 (0000ms, 0605ms total)
T34E8 001:088 JLINK_WriteReg(R6, 0x00000000)  returns 0x00 (0000ms, 0605ms total)
T34E8 001:088 JLINK_WriteReg(R7, 0x00000000)  returns 0x00 (0000ms, 0605ms total)
T34E8 001:088 JLINK_WriteReg(R8, 0x00000000)  returns 0x00 (0001ms, 0606ms total)
T34E8 001:089 JLINK_WriteReg(R9, 0x2000013C)  returns 0x00 (0000ms, 0606ms total)
T34E8 001:089 JLINK_WriteReg(R10, 0x00000000)  returns 0x00 (0000ms, 0606ms total)
T34E8 001:089 JLINK_WriteReg(R11, 0x00000000)  returns 0x00 (0000ms, 0606ms total)
T34E8 001:089 JLINK_WriteReg(R12, 0x00000000)  returns 0x00 (0000ms, 0606ms total)
T34E8 001:089 JLINK_WriteReg(R13 (SP), 0x20001000)  returns 0x00 (0000ms, 0606ms total)
